READ CLOCK

> 004713: 19.06.2015 01:06:59.701 +0.0

 01 03 90 13 00 03 D9 0E                           ..ê...Ÿ.
004738: 19.06.2015 01:07:01.381 +0.0

<004716: 19.06.2015 01:06:59.710 +0.007

 01 03 06 06 33 13 01 0F 06 F5 A1                  ....3....ı°

"19.6.2015 1:06:51"


Set clock
002885: 19.06.2015 00:49:01.300 +0.0

> 01 10 90 13 00 03 06 30 35 13 00 0F 06 E2 9A      ..ê....05....‚.
002910: 19.06.2015 00:49:02.773 +0.0


< 02888: 19.06.2015 00:49:01.307 +0.005

 01 10 90 13 00 03 5C CD                           ..ê...\Õ

 
LOAD POWER ON
 
 >02649: 19.06.2015 00:35:30.897 +0.0

 01 43 90 1E 00 4D C9 36                           .Cê..M…6
002671: 19.06.2015 00:35:31.978 +0.0

 01 43 90 1E 00 4D C9 36                           .Cê..M…6
002697: 19.06.2015 00:35:32.084 +0.0

 01 05 00 02 FF 00 2D FA                           ....ˇ.-˙
002715: 19.06.2015 00:35:32.111 +0.0

 01 05 00 02 FF 00 2D FA                           ....ˇ.-˙
002740: 19.06.2015 00:35:32.121 +0.0


< 002652: 19.06.2015 00:35:30.977 +0.079

 01 43 9A 1A A0 00 00 FF                           .C..†..ˇ
002674: 19.06.2015 00:35:32.063 +0.084

 01 43 9A 1A A0 00 00 FF F3 80 00 00 0F 01 F4 00   .C..†..ˇÛ.....Ù.
 0A 02 58 00 0A 00 00 01 00 01 00 00 00 00 00 00   ..X.............
 13 00 00 00 00 00 06 00 00 00 00 00 13 00 00 00   ................
 00 00 06 00 3C 0C 00 00 00 00 00 00 01 2B 0B      ....<........+.
002700: 19.06.2015 00:35:32.111 +0.026

 01 01 05 00 02 FF 00 2D FA F3                     .....ˇ.-˙Û

002718: 19.06.2015 00:35:32.116 +0.004

 01 05 00 02 FF 00 2D FA                           ....ˇ.-˙

0

MONITOR
>003055: 19.06.2015 00:53:24.918 +0.0

 01 04 32 00 00 03 BE B3                           ..2...æ≥
003075: 19.06.2015 00:53:25.923 +0.0

 01 04 32 00 00 03 BE B3                           ..2...æ≥
003097: 19.06.2015 00:53:25.948 +0.0

 01 02 20 00 00 01 B2 0A                           .. ...≤.
003119: 19.06.2015 00:53:25.974 +0.0

 01 43 31 00 00 1B 0A F2                           .C1....Ú
003141: 19.06.2015 00:53:26.980 +0.0

 01 43 31 00 00 1B 0A F2                           .C1....Ú
003167: 19.06.2015 00:53:27.011 +0.0

 01 04 33 1A 00 03 9E 88                           ..3.....
003189: 19.06.2015 00:53:27.041 +0.0

 01 04 33 02 00 12 DE 83                           ..3...ﬁ.
003209: 19.06.2015 00:53:28.048 +0.0

 01 04 33 02 00 12 DE 83                           ..3...ﬁ.
003234: 19.06.2015 00:53:28.060

<003058: 19.06.2015 00:53:24.922 +0.003

 01 04 06 00 00 00 01 00                           ........
003078: 19.06.2015 00:53:25.927 +0.004

 01 04 06 00 00 00 01 00 01 F0 93                  ..........
003100: 19.06.2015 00:53:25.952 +0.004

 01 02 01 00 A1 88                                 ....°.
003122: 19.06.2015 00:53:25.979 +0.005

 01 43 36 04 0F FF                                 .C6..ˇ
003144: 19.06.2015 00:53:26.989 +0.009

 01 43 36 04 0F FF FF 00 C5 00 00 00 00 00 00 04   .C6..ˇˇ.≈.......
 FB 00 00 00 00 00 00 04 FB 00 03 00 26 00 00 04   ˚.......˚...&...
 FB 00 03 00 26 00 00 09 C4 0A 90 0A 90 09 C4 00   ˚...&...ƒ.ê.ê.ƒ.
 30 10 E4                                          0.‰
003170: 19.06.2015 00:53:27.019 +0.008

 01 04 06 04 FC FF FD FF FF 91 57                  ....¸ˇ˝ˇˇ.W

003192: 19.06.2015 00:53:27.047 +0.006

 01 04 24 04 FC 04 FA 00 00 00 00                  ..$.¸.˙....

003212: 19.06.2015 00:53:28.056 +0.008

 01 04 24 04 FC 04 FA 00 00 00 00 00 42 00 00 00   ..$.¸.˙.....B...
 42 00 00 00 42 00 00 00 00 00 00 00 67 00 00 00   B...B.......g...
 67 00 00 00 67 00 00 9D 8B                        g...g..ù.


 DEVICE PARAMETER READ
> 003453: 19.06.2015 00:55:55.201 +0.0

 01 43 90 17 00 4D 19 34                           .Cê..M.4
003477: 19.06.2015 00:55:56.217 +0.0

 01 43 90 17 00 4D 19 34                           .Cê..M.4
003506: 19.06.2015 00:55:58.043 +0.0

<003456: 19.06.2015 00:55:55.216 +0.013

 01 43 9A 10 00 00 7F F9 C0 00 00 07 FF 19 64 F0   .C...˘¿...ˇ.d
 60 21 34 1D 4C 21 34 1D 4C 00 00 01 F4 00 0A 02   `!4.L!4.L...Ù...
 58 00 0A 00 00 01 00 01 00                        X........
003480: 19.06.2015 00:55:56.235 +0.017

 01 43 9A 10 00 00 7F F9 C0 00 00 07 FF 19 64 F0   .C...˘¿...ˇ.d
 60 21 34 1D 4C 21 34 1D 4C 00 00 01 F4 00 0A 02   `!4.L!4.L...Ù...
 58 00 0A 00 00 01 00 01 00 00 00 00 00 00 13 00   X...............
 00 00 00 00 06 00 00 00 00 00 13 00 00 00 00 00   ................
 06 00 3C 43 8E                                    ..<C.

CONTROL PARAMETER READ

> 003799: 19.06.2015 00:57:56.093 +0.0

 01 04 31 1D 00 01 AF 30                           ..1...Ø0
003821: 19.06.2015 00:57:56.124 +0.0

 01 43 30 05 00 0A DB 03                           .C0...€.
003845: 19.06.2015 00:57:57.130 +0.0

 01 43 30 05 00 0A DB 03                           .C0...€.
003871: 19.06.2015 00:57:57.160 +0.0

 01 43 90 00 00 71 A9 21                           .Cê..q©!
003893: 19.06.2015 00:57:58.176 +0.0

 01 43 90 00 00 71 A9 21                           .Cê..q©!
003922: 19.06.2015 00:57:59.700 +0.0

<003802: 19.06.2015 00:57:56.103 +0.009

 01 04 02 04 B0 BA 44                              ....∞∫D
003824: 19.06.2015 00:57:56.129 +0.004

 01 43 14 02 0F 07 D0                              .C....–
003848: 19.06.2015 00:57:57.136 +0.005

 01 43 14 02 0F 07 D0 C3 50 00 00 00 02 07 D0 A8   .C....–√P.....–®
 C8                                                »
003874: 19.06.2015 00:57:57.176 +0.015

 01 43 E2 01 FE A8 00 00 3F FC E0 00 00 03 FF F8   .C‚.˛®..?¸‡...ˇ¯
 7F                                               
003896: 19.06.2015 00:57:58.202 +0.025

 01 43 E2 01 FE A8 00 00 3F FC E0 00 00 03 FF F8   .C‚.˛®..?¸‡...ˇ¯
 7F FF 00 01 00 C8 01 2C 06 40 05 DC 05 DC 05 B4  ˇ...».,.@.‹.‹.¥
 05 A0 05 64 05 28 04 EC 04 C4 04 B0 04 56 04 24   .†.d.(.Ï.ƒ.∞.V.$
 39 31 13 00 0F 06 00 1E 19 64 F0 60 21 34 1D 4C   91.......d`!4.L
 21 34 1D 4C 00 00 01 F4 00 0A 02 58 00 0A 00 00   !4.L...Ù...X....
 01 00 01 00 00 00 00 00 00 13 00 00 00 00 00 06   ................
 00 00 00 00 00 13 00 00 00 00 00 06 00 3C 0C 00   .............<..
 00 00 00 00 00 01 00 78 00 78 00 50 00 64 00 64   .......x.x.P.d.d
 00 00 E0 B2                                       ..‡≤

 
 DEVICE INFORMATION READ
 > 004141: 19.06.2015 01:00:15.844 +0.0

 01 2B 0E 01 00 70 77                              .+...pw
004169: 19.06.2015 01:00:15.887 +0.0

 01 2B 0E 02 00 70 87                              .+...p.
004196: 19.06.2015 01:00:17.739 +0.0


< 004144: 19.06.2015 01:00:15.859 +0.014

 01 2B 0E 01 01 00 00 03 00 15 45 50 73 6F 6C 61   .+........EPsola
 72 20 54 65 63 68 20 63 6F 2E 2C 20 4C 74 64 01   r Tech co., Ltd.
 0C 54 72 61 63 65 72 32 32 31 35 42 4E 02 0D 56   .Tracer2215BN..V
 30 32 2E 30 35 2B 56 30 37 2E 31 32 D7 D8         02.05+V07.12◊ÿ
004172: 19.06.2015 01:00:15.896 +0.008

 01 2B 0E 02 01 00 00 01 03 10 30 30 30 32 32 30   .+........000220
 31 33 30 31 32 30 30 30 34 35 7A 38               1301200045z8

Model: Tracer2215BN
Version: V02.05+V07.12
SN: 0002201301200045

LED LOAD CONFIGURATION (FAILED)
> 004341: 19.06.2015 01:02:50.878 +0.0

 01 43 90 1E 00 64 08 E8                           .Cê..d.Ë
004365: 19.06.2015 01:02:51.895 +0.0

 01 43 90 1E 00 64 08 E8                           .Cê..d.Ë
004394: 19.06.2015 01:02:51.920 +0.0

< 004344: 19.06.2015 01:02:50.894 +0.016

 01 43 C8 00 00 07 FA A0 00 00 FF F3 80 00 00 0F   .C»...˙†..ˇÛ....
 01 F4 00 0A 02 58 00 0A 00 00 01 00               .Ù...X......
004368: 19.06.2015 01:02:51.916 +0.020

 01 43 C8 00 00 07 FA A0 00 00 FF F3 80 00 00 0F   .C»...˙†..ˇÛ....
 01 F4 00 0A 02 58 00 0A 00 00 01 00 01 00 00 00   .Ù...X..........
 00 00 00 13 00 00 00 00 00 06 00 00 00 00 00 13   ................
 00 00 00 00 00 06 00 3C 0C 00 00 00 00 00 00 01   .......<........
 00 78 00 78 00 50 00 64 00 64 00 00 CB 76         .x.x.P.d.d..Àv

GENERAL LOAD CONFIGURATION
 
> 004539: 19.06.2015 01:03:54.913 +0.0

 01 43 90 1E 00 4D C9 36                           .Cê..M…6
004568: 19.06.2015 01:03:56.558 +0.0

< 004542: 19.06.2015 01:03:54.931 +0.018

 01 43 9A 1A A0 00 00 FF F3 80 00 00 0F 01 F4 00   .C..†..ˇÛ.....Ù.
 0A 02 58 00 0A 00 00 01 00 01 00 00 00 00 00 00   ..X.............
 13 00 00 00 00 00 06 00 00 00 00 00 13 00 00 00   ................
 00 00 06 00 3C 0C 00 00 00 00 00 00 01 2B 0B      ....<........+.

 
 READ DEVICE ID
 
 >004883: 19.06.2015 01:15:05.790 +0.0

 F8 45 00 01 01 F8 89 BE                           ¯E...¯.æ
004901: 19.06.2015 01:15:05.797 +0.0

 F8 45 00 01 01 F8 89 BE                           ¯E...¯.æ
004926: 19.06.2015 01:15:06.946 +0.0

< 004886: 19.06.2015 01:15:05.795 +0.004

 01 45 01 03 61                                    .E..a
004904: 19.06.2015 01:15:05.801 +0.003

 F8 45 01 03 61                                    ¯E..a

 "1"
 
 SET DEVICE ID
 
> 005071: 19.06.2015 01:16:26.830 +0.0

 F8 45 00 01 01 01 49 FC                           ¯E....I¸
005096: 19.06.2015 01:16:27.996 +0.0

< 005074: 19.06.2015 01:16:26.833 +0.002

 F8 45 01 03 61                                    ¯E..a

